 (2024-04-06 17:46:29.167223)  vcan0  701   [1]  00								正在初始化
 (2024-04-06 17:46:29.167280)  vcan0  000   [2]  82 00							重置通信
 (2024-04-06 17:46:29.174813)  vcan0  080   [0] 								同步报文
 (2024-04-06 17:46:29.184630)  vcan0  080   [0] 								同步报文
 (2024-04-06 17:46:29.194515)  vcan0  080   [0] 								同步报文
 (2024-04-06 17:46:29.204551)  vcan0  080   [0] 								同步报文
 (2024-04-06 17:46:29.214568)  vcan0  080   [0] 								同步报文
 (2024-04-06 17:46:29.233100)  vcan0  080   [0] 								同步报文
 (2024-04-06 17:46:29.234540)  vcan0  080   [0] 								同步报文
 (2024-04-06 17:46:29.244539)  vcan0  080   [0] 								同步报文
 (2024-04-06 17:46:29.254647)  vcan0  080   [0] 								同步报文
 (2024-04-06 17:46:29.264582)  vcan0  080   [0] 								同步报文
 (2024-04-06 17:46:29.272517)  vcan0  702   [1]  00 							正在初始化
 (2024-04-06 17:46:29.272672)  vcan0  602   [8]  40 00 10 00 00 00 00 00   		sdo读100000h 设备型号
 (2024-04-06 17:46:29.272711)  vcan0  582   [8]  43 00 10 00 92 01 06 00		sdo答读100000h=00060109h
 (2024-04-06 17:46:29.272884)  vcan0  602   [8]  40 18 10 01 00 00 00 00		sdo读101801h 设备厂商代码
 (2024-04-06 17:46:29.272914)  vcan0  582   [8]  43 18 10 01 A3 01 00 00		sdo答读101801h=000001A3h
 (2024-04-06 17:46:29.272977)  vcan0  602   [8]  23 00 14 01 02 02 00 80		sdo写140001h=80000202h RPDO1站号=202h 最高位置1
 (2024-04-06 17:46:29.273010)  vcan0  582   [8]  60 00 14 01 00 00 00 00		sdo答写
 (2024-04-06 17:46:29.273029)  vcan0  602   [8]  2F 00 16 00 00 00 00 00		sdo写 160000h=00h   RPDO1映射组
 (2024-04-06 17:46:29.273085)  vcan0  582   [8]  60 00 16 00 00 00 00 00		sdo答写
 (2024-04-06 17:46:29.273104)  vcan0  602   [8]  23 00 16 01 10 00 40 60		sdo写160001h=60400010h RPDO1映射1=控制字 16bit
 (2024-04-06 17:46:29.273153)  vcan0  582   [8]  60 00 16 01 00 00 00 00		sdo答写
 (2024-04-06 17:46:29.273169)  vcan0  602   [8]  23 00 16 02 08 00 60 60		sdo写160002h=60600008h RPDO2映射2=工作模式 8bit
 (2024-04-06 17:46:29.273223)  vcan0  582   [8]  60 00 16 02 00 00 00 00		sdo答写 
 (2024-04-06 17:46:29.273249)  vcan0  602   [8]  2F 00 16 00 02 00 00 00		sdo写160000h=02h RPDO1映射组=2
 (2024-04-06 17:46:29.273308)  vcan0  582   [8]  60 00 16 00 00 00 00 00		sdo答写 
 (2024-04-06 17:46:29.273363)  vcan0  602   [8]  23 00 14 01 02 02 00 00		sdo写140001h=00000202h RPDO1站号=202h 最高位置0
 (2024-04-06 17:46:29.273390)  vcan0  582   [8]  60 00 14 01 00 00 00 00		sdo答写
 (2024-04-06 17:46:29.273426)  vcan0  602   [8]  23 01 14 01 02 03 00 80		sdo4写140101h=80000302h RPDO2站号=302h  最高位置1
 (2024-04-06 17:46:29.273450)  vcan0  582   [8]  60 01 14 01 00 00 00 00		sdo答写
 (2024-04-06 17:46:29.273461)  vcan0  602   [8]  2F 01 16 00 00 00 00 00		sdo1写160100h=00h RPDO2映射组=00h
 (2024-04-06 17:46:29.273521)  vcan0  582   [8]  60 01 16 00 00 00 00 00		sdo答写
 (2024-04-06 17:46:29.273578)  vcan0  602   [8]  23 01 16 01 20 00 7A 60		sdo4写160101h=607A0020h  RPDO2映射1=目标位置
 (2024-04-06 17:46:29.273602)  vcan0  582   [8]  60 01 16 01 00 00 00 00		sdo答写
 (2024-04-06 17:46:29.273641)  vcan0  602   [8]  2F 01 16 00 01 00 00 00		sdo1写160100h=01h 		RPDO1映射组=01h
 (2024-04-06 17:46:29.273663)  vcan0  582   [8]  60 01 16 00 00 00 00 00		sdo答写
 (2024-04-06 17:46:29.273676)  vcan0  602   [8]  23 01 14 01 02 03 00 00		sdo4写140101h=00000302h RPDO2站号=302h 最高位置0
 (2024-04-06 17:46:29.273729)  vcan0  582   [8]  60 01 14 01 00 00 00 00		sdo答写
 (2024-04-06 17:46:29.273745)  vcan0  602   [8]  23 00 18 01 82 01 00 80		sdo4写180001h=80000182h	TPDO1站号=182h 最高位置1
 (2024-04-06 17:46:29.273795)  vcan0  582   [8]  60 00 18 01 00 00 00 00		sdo答写
 (2024-04-06 17:46:29.273809)  vcan0  602   [8]  2F 00 18 02 01 00 00 00		sdo1写180002h=01h 		TPDO1传输类型=01h
 (2024-04-06 17:46:29.273859)  vcan0  582   [8]  60 00 18 02 00 00 00 00		sdo答写
 (2024-04-06 17:46:29.273872)  vcan0  602   [8]  2F 00 1A 00 00 00 00 00		sdo1写1A0000h=00h		TPDO1映射组=00h
 (2024-04-06 17:46:29.273924)  vcan0  582   [8]  60 00 1A 00 00 00 00 00		sdo1答写
 (2024-04-06 17:46:29.273938)  vcan0  602   [8]  23 00 1A 01 10 00 41 60		sdo4写1A0001h=60410010h  TPDO1映射1=状态字 16bit
 (2024-04-06 17:46:29.273990)  vcan0  582   [8]  60 00 1A 01 00 00 00 00		sdo答写
 (2024-04-06 17:46:29.274004)  vcan0  602   [8]  23 00 1A 02 08 00 61 60		sdo4写1A0002h=60610008h  TPDO1映射2=有效工作模式 8bit
 (2024-04-06 17:46:29.274059)  vcan0  582   [8]  60 00 1A 02 00 00 00 00		sdo答写
 (2024-04-06 17:46:29.274074)  vcan0  602   [8]  2F 00 1A 00 02 00 00 00		sdo1写1A0000h=02h			TPDO1映射组=02h
 (2024-04-06 17:46:29.274123)  vcan0  582   [8]  60 00 1A 00 00 00 00 00		sdo答写
 (2024-04-06 17:46:29.274137)  vcan0  602   [8]  23 00 18 01 82 01 00 00		sdo4写180001h=00000182h		TPDO1站号=182h 最高位置0
 (2024-04-06 17:46:29.274187)  vcan0  582   [8]  60 00 18 01 00 00 00 00		sdo答写
 (2024-04-06 17:46:29.274201)  vcan0  602   [8]  23 01 18 01 82 02 00 80		sdo4写180101h=80000282h		TPDO2站号=282h 最高位置1
 (2024-04-06 17:46:29.274251)  vcan0  582   [8]  60 01 18 01 00 00 00 00		sdo答写
 (2024-04-06 17:46:29.274265)  vcan0  602   [8]  2F 01 18 02 01 00 00 00		sdo1写180102h=01h			TPDO2传输类型=01h
 (2024-04-06 17:46:29.274316)  vcan0  582   [8]  60 01 18 02 00 00 00 00		sdo答写
 (2024-04-06 17:46:29.274330)  vcan0  602   [8]  2F 01 1A 00 00 00 00 00		sdo1写1A0100h=00h			TPDO2映射组=00h
 (2024-04-06 17:46:29.274383)  vcan0  582   [8]  60 01 1A 00 00 00 00 00		sdo答写
 (2024-04-06 17:46:29.274397)  vcan0  602   [8]  23 01 1A 01 20 00 64 60		sdo4写1A0101h=60640020h		TPDO映射1=实际位置 32bit
 (2024-04-06 17:46:29.274448)  vcan0  582   [8]  60 01 1A 01 00 00 00 00		sdo答写
 (2024-04-06 17:46:29.274462)  vcan0  602   [8]  23 01 1A 02 20 00 6C 60		sdo4写1A0102h=606C0020h		TPDO映射2=实际速度 32bit
 (2024-04-06 17:46:29.274487)  vcan0  080   [0] 								同步报文
 (2024-04-06 17:46:29.274558)  vcan0  582   [8]  60 01 1A 02 00 00 00 00		sdo答写
 (2024-04-06 17:46:29.274573)  vcan0  602   [8]  2F 01 1A 00 02 00 00 00		sdo1写1A0100h=02h			TPDO2映射组=02h
 (2024-04-06 17:46:29.274652)  vcan0  182   [3]  00 00 00						TPDO1 状态字+有效工作模式
 (2024-04-06 17:46:29.274704)  vcan0  582   [8]  60 01 1A 00 00 00 00 00		sdo答写
 (2024-04-06 17:46:29.274718)  vcan0  602   [8]  23 01 18 01 82 02 00 00		sdo4写180101h=00000282h		TPDO2站号=282h 最高位置0
 (2024-04-06 17:46:29.274774)  vcan0  582   [8]  60 01 18 01 00 00 00 00		sdo答写
 (2024-04-06 17:46:29.274798)  vcan0  602   [8]  2F C2 60 01 32 00 00 00		sdo1写60C201h=32h			插补时间组=32h
 (2024-04-06 17:46:29.274833)  vcan0  582   [8]  60 C2 60 01 00 00 00 00		sdo答写
 (2024-04-06 17:46:29.274857)  vcan0  602   [8]  2F C2 60 02 FD 00 00 00		sdo1写60C202h=FDh			插补时间指数=-3dec
 (2024-04-06 17:46:29.274903)  vcan0  582   [8]  60 C2 60 02 00 00 00 00		sdo答写
 (2024-04-06 17:46:29.274922)  vcan0  602   [8]  23 81 60 00 E8 03 00 00		sdo4写608100h=000003E8h		梯形速度=1000dec
 (2024-04-06 17:46:29.274971)  vcan0  582   [8]  60 81 60 00 00 00 00 00		sdo答写
 (2024-04-06 17:46:29.274986)  vcan0  602   [8]  23 83 60 00 D0 07 00 00		sdo4写608300h=000007D0h		梯形加速度=2000dec
 (2024-04-06 17:46:29.275037)  vcan0  582   [8]  60 83 60 00 00 00 00 00		sdo答写
 (2024-04-06 17:46:29.275051)  vcan0  602   [8]  2F 60 60 00 07 00 00 00		sdo1写606000h=00000007h		工作模式=7dec插补模式
 (2024-04-06 17:46:29.275130)  vcan0  582   [8]  60 60 60 00 00 00 00 00		sdo答写
 (2024-04-06 17:46:29.275299)  vcan0  000   [2]  01 02							启动远程节点 NodeID=2
 (2024-04-06 17:46:29.284639)  vcan0  080   [0] 								同步报文
 (2024-04-06 17:46:29.284708)  vcan0  182   [3]  00 00 07						TPDO1 状态字+有效工作模式 
 
 
 