 (2024-04-06 17:46:29.167223)  vcan0  701   [1]  00
 (2024-04-06 17:46:29.167280)  vcan0  000   [2]  82 00
 (2024-04-06 17:46:29.174813)  vcan0  080   [0] 
 (2024-04-06 17:46:29.184630)  vcan0  080   [0] 
 (2024-04-06 17:46:29.194515)  vcan0  080   [0] 
 (2024-04-06 17:46:29.204551)  vcan0  080   [0] 
 (2024-04-06 17:46:29.214568)  vcan0  080   [0] 
 (2024-04-06 17:46:29.233100)  vcan0  080   [0] 
 (2024-04-06 17:46:29.234540)  vcan0  080   [0] 
 (2024-04-06 17:46:29.244539)  vcan0  080   [0] 
 (2024-04-06 17:46:29.254647)  vcan0  080   [0] 
 (2024-04-06 17:46:29.264582)  vcan0  080   [0] 
 (2024-04-06 17:46:29.272517)  vcan0  702   [1]  00
 (2024-04-06 17:46:29.272672)  vcan0  602   [8]  40 00 10 00 00 00 00 00
 (2024-04-06 17:46:29.272711)  vcan0  582   [8]  43 00 10 00 92 01 06 00
 (2024-04-06 17:46:29.272884)  vcan0  602   [8]  40 18 10 01 00 00 00 00
 (2024-04-06 17:46:29.272914)  vcan0  582   [8]  43 18 10 01 A3 01 00 00
 (2024-04-06 17:46:29.272977)  vcan0  602   [8]  23 00 14 01 02 02 00 80
 (2024-04-06 17:46:29.273010)  vcan0  582   [8]  60 00 14 01 00 00 00 00
 (2024-04-06 17:46:29.273029)  vcan0  602   [8]  2F 00 16 00 00 00 00 00
 (2024-04-06 17:46:29.273085)  vcan0  582   [8]  60 00 16 00 00 00 00 00
 (2024-04-06 17:46:29.273104)  vcan0  602   [8]  23 00 16 01 10 00 40 60
 (2024-04-06 17:46:29.273153)  vcan0  582   [8]  60 00 16 01 00 00 00 00
 (2024-04-06 17:46:29.273169)  vcan0  602   [8]  23 00 16 02 08 00 60 60
 (2024-04-06 17:46:29.273223)  vcan0  582   [8]  60 00 16 02 00 00 00 00
 (2024-04-06 17:46:29.273249)  vcan0  602   [8]  2F 00 16 00 02 00 00 00
 (2024-04-06 17:46:29.273308)  vcan0  582   [8]  60 00 16 00 00 00 00 00
 (2024-04-06 17:46:29.273363)  vcan0  602   [8]  23 00 14 01 02 02 00 00
 (2024-04-06 17:46:29.273390)  vcan0  582   [8]  60 00 14 01 00 00 00 00
 (2024-04-06 17:46:29.273426)  vcan0  602   [8]  23 01 14 01 02 03 00 80
 (2024-04-06 17:46:29.273450)  vcan0  582   [8]  60 01 14 01 00 00 00 00
 (2024-04-06 17:46:29.273461)  vcan0  602   [8]  2F 01 16 00 00 00 00 00
 (2024-04-06 17:46:29.273521)  vcan0  582   [8]  60 01 16 00 00 00 00 00
 (2024-04-06 17:46:29.273578)  vcan0  602   [8]  23 01 16 01 20 00 7A 60
 (2024-04-06 17:46:29.273602)  vcan0  582   [8]  60 01 16 01 00 00 00 00
 (2024-04-06 17:46:29.273641)  vcan0  602   [8]  2F 01 16 00 01 00 00 00
 (2024-04-06 17:46:29.273663)  vcan0  582   [8]  60 01 16 00 00 00 00 00
 (2024-04-06 17:46:29.273676)  vcan0  602   [8]  23 01 14 01 02 03 00 00
 (2024-04-06 17:46:29.273729)  vcan0  582   [8]  60 01 14 01 00 00 00 00
 (2024-04-06 17:46:29.273745)  vcan0  602   [8]  23 00 18 01 82 01 00 80
 (2024-04-06 17:46:29.273795)  vcan0  582   [8]  60 00 18 01 00 00 00 00
 (2024-04-06 17:46:29.273809)  vcan0  602   [8]  2F 00 18 02 01 00 00 00
 (2024-04-06 17:46:29.273859)  vcan0  582   [8]  60 00 18 02 00 00 00 00
 (2024-04-06 17:46:29.273872)  vcan0  602   [8]  2F 00 1A 00 00 00 00 00
 (2024-04-06 17:46:29.273924)  vcan0  582   [8]  60 00 1A 00 00 00 00 00
 (2024-04-06 17:46:29.273938)  vcan0  602   [8]  23 00 1A 01 10 00 41 60
 (2024-04-06 17:46:29.273990)  vcan0  582   [8]  60 00 1A 01 00 00 00 00
 (2024-04-06 17:46:29.274004)  vcan0  602   [8]  23 00 1A 02 08 00 61 60
 (2024-04-06 17:46:29.274059)  vcan0  582   [8]  60 00 1A 02 00 00 00 00
 (2024-04-06 17:46:29.274074)  vcan0  602   [8]  2F 00 1A 00 02 00 00 00
 (2024-04-06 17:46:29.274123)  vcan0  582   [8]  60 00 1A 00 00 00 00 00
 (2024-04-06 17:46:29.274137)  vcan0  602   [8]  23 00 18 01 82 01 00 00
 (2024-04-06 17:46:29.274187)  vcan0  582   [8]  60 00 18 01 00 00 00 00
 (2024-04-06 17:46:29.274201)  vcan0  602   [8]  23 01 18 01 82 02 00 80
 (2024-04-06 17:46:29.274251)  vcan0  582   [8]  60 01 18 01 00 00 00 00
 (2024-04-06 17:46:29.274265)  vcan0  602   [8]  2F 01 18 02 01 00 00 00
 (2024-04-06 17:46:29.274316)  vcan0  582   [8]  60 01 18 02 00 00 00 00
 (2024-04-06 17:46:29.274330)  vcan0  602   [8]  2F 01 1A 00 00 00 00 00
 (2024-04-06 17:46:29.274383)  vcan0  582   [8]  60 01 1A 00 00 00 00 00
 (2024-04-06 17:46:29.274397)  vcan0  602   [8]  23 01 1A 01 20 00 64 60
 (2024-04-06 17:46:29.274448)  vcan0  582   [8]  60 01 1A 01 00 00 00 00
 (2024-04-06 17:46:29.274462)  vcan0  602   [8]  23 01 1A 02 20 00 6C 60
 (2024-04-06 17:46:29.274487)  vcan0  080   [0] 
 (2024-04-06 17:46:29.274558)  vcan0  582   [8]  60 01 1A 02 00 00 00 00
 (2024-04-06 17:46:29.274573)  vcan0  602   [8]  2F 01 1A 00 02 00 00 00
 (2024-04-06 17:46:29.274652)  vcan0  182   [3]  00 00 00
 (2024-04-06 17:46:29.274704)  vcan0  582   [8]  60 01 1A 00 00 00 00 00
 (2024-04-06 17:46:29.274718)  vcan0  602   [8]  23 01 18 01 82 02 00 00
 (2024-04-06 17:46:29.274774)  vcan0  582   [8]  60 01 18 01 00 00 00 00
 (2024-04-06 17:46:29.274798)  vcan0  602   [8]  2F C2 60 01 32 00 00 00
 (2024-04-06 17:46:29.274833)  vcan0  582   [8]  60 C2 60 01 00 00 00 00
 (2024-04-06 17:46:29.274857)  vcan0  602   [8]  2F C2 60 02 FD 00 00 00
 (2024-04-06 17:46:29.274903)  vcan0  582   [8]  60 C2 60 02 00 00 00 00
 (2024-04-06 17:46:29.274922)  vcan0  602   [8]  23 81 60 00 E8 03 00 00
 (2024-04-06 17:46:29.274971)  vcan0  582   [8]  60 81 60 00 00 00 00 00
 (2024-04-06 17:46:29.274986)  vcan0  602   [8]  23 83 60 00 D0 07 00 00
 (2024-04-06 17:46:29.275037)  vcan0  582   [8]  60 83 60 00 00 00 00 00
 (2024-04-06 17:46:29.275051)  vcan0  602   [8]  2F 60 60 00 07 00 00 00
 (2024-04-06 17:46:29.275130)  vcan0  582   [8]  60 60 60 00 00 00 00 00
 (2024-04-06 17:46:29.275299)  vcan0  000   [2]  01 02
 (2024-04-06 17:46:29.284639)  vcan0  080   [0] 
 (2024-04-06 17:46:29.284708)  vcan0  182   [3]  00 00 07
 (2024-04-06 17:46:29.284800)  vcan0  282   [8]  00 00 00 00 00 00 00 00
 (2024-04-06 17:46:29.287351)  vcan0  202   [3]  00 01 00
 (2024-04-06 17:46:29.287477)  vcan0  402   [6]  00 01 00 00 00 00
 (2024-04-06 17:46:29.287528)  vcan0  502   [6]  00 01 00 00 00 00
 (2024-04-06 17:46:29.294569)  vcan0  080   [0] 
 (2024-04-06 17:46:29.296581)  vcan0  182   [3]  40 00 00
 (2024-04-06 17:46:29.296674)  vcan0  282   [8]  00 00 00 00 00 00 00 00
 (2024-04-06 17:46:29.296887)  vcan0  202   [3]  00 01 00
 (2024-04-06 17:46:29.296974)  vcan0  402   [6]  00 01 00 00 00 00
 (2024-04-06 17:46:29.297024)  vcan0  502   [6]  00 01 00 00 00 00
 (2024-04-06 17:46:29.304568)  vcan0  080   [0] 
 (2024-04-06 17:46:29.304628)  vcan0  182   [3]  40 00 00
 (2024-04-06 17:46:29.304654)  vcan0  282   [8]  00 00 00 00 00 00 00 00
 (2024-04-06 17:46:29.306631)  vcan0  202   [3]  00 01 00
 (2024-04-06 17:46:29.306658)  vcan0  402   [6]  00 01 00 00 00 00
 (2024-04-06 17:46:29.306671)  vcan0  502   [6]  00 01 00 00 00 00
 (2024-04-06 17:46:29.314530)  vcan0  080   [0] 
 (2024-04-06 17:46:29.314612)  vcan0  182   [3]  40 00 00
 (2024-04-06 17:46:29.314649)  vcan0  282   [8]  00 00 00 00 00 00 00 00
 (2024-04-06 17:46:29.316525)  vcan0  202   [3]  06 01 00
 (2024-04-06 17:46:29.316551)  vcan0  402   [6]  06 01 00 00 00 00
 (2024-04-06 17:46:29.316564)  vcan0  502   [6]  06 01 00 00 00 00
 (2024-04-06 17:46:29.324561)  vcan0  080   [0] 
 (2024-04-06 17:46:29.324637)  vcan0  182   [3]  21 00 00
 (2024-04-06 17:46:29.324654)  vcan0  282   [8]  00 00 00 00 00 00 00 00
 (2024-04-06 17:46:29.326541)  vcan0  202   [3]  06 01 00
 (2024-04-06 17:46:29.326568)  vcan0  402   [6]  06 01 00 00 00 00
 (2024-04-06 17:46:29.326580)  vcan0  502   [6]  06 01 00 00 00 00
 (2024-04-06 17:46:29.334951)  vcan0  080   [0] 
 (2024-04-06 17:46:29.335024)  vcan0  182   [3]  21 00 00
 (2024-04-06 17:46:29.335047)  vcan0  282   [8]  00 00 00 00 00 00 00 00
 (2024-04-06 17:46:29.337446)  vcan0  202   [3]  06 01 00
 (2024-04-06 17:46:29.337692)  vcan0  402   [6]  06 01 00 00 00 00
 (2024-04-06 17:46:29.337709)  vcan0  502   [6]  06 01 00 00 00 00
 (2024-04-06 17:46:29.344566)  vcan0  080   [0] 
 (2024-04-06 17:46:29.344722)  vcan0  182   [3]  21 00 00
 (2024-04-06 17:46:29.344769)  vcan0  282   [8]  00 00 00 00 00 00 00 00
 (2024-04-06 17:46:29.347311)  vcan0  202   [3]  07 01 00
 (2024-04-06 17:46:29.347369)  vcan0  402   [6]  07 01 00 00 00 00
 (2024-04-06 17:46:29.347385)  vcan0  502   [6]  07 01 00 00 00 00
 (2024-04-06 17:46:29.354528)  vcan0  080   [0] 
 (2024-04-06 17:46:29.354599)  vcan0  182   [3]  23 00 00
 (2024-04-06 17:46:29.354621)  vcan0  282   [8]  00 00 00 00 00 00 00 00
 (2024-04-06 17:46:29.356570)  vcan0  202   [3]  07 01 00
 (2024-04-06 17:46:29.356593)  vcan0  402   [6]  07 01 00 00 00 00
 (2024-04-06 17:46:29.356616)  vcan0  502   [6]  07 01 00 00 00 00
 (2024-04-06 17:46:29.364569)  vcan0  080   [0] 
 (2024-04-06 17:46:29.364633)  vcan0  182   [3]  23 00 00
 (2024-04-06 17:46:29.364654)  vcan0  282   [8]  00 00 00 00 00 00 00 00
 (2024-04-06 17:46:29.366564)  vcan0  202   [3]  07 01 00
 (2024-04-06 17:46:29.366598)  vcan0  402   [6]  07 01 00 00 00 00
 (2024-04-06 17:46:29.366612)  vcan0  502   [6]  07 01 00 00 00 00
 (2024-04-06 17:46:29.374663)  vcan0  080   [0] 
 (2024-04-06 17:46:29.374824)  vcan0  182   [3]  23 00 00
 (2024-04-06 17:46:29.374867)  vcan0  282   [8]  00 00 00 00 00 00 00 00
 (2024-04-06 17:46:29.377256)  vcan0  202   [3]  0F 01 00
 (2024-04-06 17:46:29.377422)  vcan0  402   [6]  0F 01 00 00 00 00
 (2024-04-06 17:46:29.377481)  vcan0  502   [6]  0F 01 00 00 00 00
 (2024-04-06 17:46:29.384562)  vcan0  080   [0] 
 (2024-04-06 17:46:29.384691)  vcan0  182   [3]  27 00 00
 (2024-04-06 17:46:29.384752)  vcan0  282   [8]  00 00 00 00 00 00 00 00
 (2024-04-06 17:46:29.386606)  vcan0  202   [3]  0F 01 00
 (2024-04-06 17:46:29.386639)  vcan0  402   [6]  0F 01 00 00 00 00
 (2024-04-06 17:46:29.386653)  vcan0  502   [6]  0F 01 00 00 00 00
 (2024-04-06 17:46:29.394535)  vcan0  080   [0] 
 (2024-04-06 17:46:29.394585)  vcan0  182   [3]  27 00 00
 (2024-04-06 17:46:29.394607)  vcan0  282   [8]  00 00 00 00 00 00 00 00
 (2024-04-06 17:46:29.396608)  vcan0  202   [3]  0F 01 00
 (2024-04-06 17:46:29.396715)  vcan0  402   [6]  0F 01 00 00 00 00
 (2024-04-06 17:46:29.396770)  vcan0  502   [6]  0F 01 00 00 00 00
 (2024-04-06 17:46:29.396823)  vcan0  202   [3]  0F 01 06
 (2024-04-06 17:46:29.404556)  vcan0  080   [0] 
 (2024-04-06 17:46:29.404638)  vcan0  182   [3]  27 00 06
 (2024-04-06 17:46:29.404658)  vcan0  282   [8]  00 00 00 00 00 00 00 00
 (2024-04-06 17:46:29.406586)  vcan0  202   [3]  0F 01 06
 (2024-04-06 17:46:29.406648)  vcan0  402   [6]  0F 01 00 00 00 00
 (2024-04-06 17:46:29.406661)  vcan0  502   [6]  0F 01 00 00 00 00
 (2024-04-06 17:46:29.414585)  vcan0  080   [0] 
 (2024-04-06 17:46:29.414659)  vcan0  182   [3]  27 00 06
 (2024-04-06 17:46:29.414679)  vcan0  282   [8]  00 00 00 00 00 00 00 00
 (2024-04-06 17:46:29.416890)  vcan0  202   [3]  0F 01 06
 (2024-04-06 17:46:29.417037)  vcan0  402   [6]  0F 01 00 00 00 00
 (2024-04-06 17:46:29.417089)  vcan0  502   [6]  0F 01 00 00 00 00
 (2024-04-06 17:46:29.417386)  vcan0  602   [8]  40 98 60 00 00 00 00 00
 (2024-04-06 17:46:29.417521)  vcan0  582   [8]  4F 98 60 00 00 00 00 00
 (2024-04-06 17:46:29.417854)  vcan0  202   [3]  0F 01 00
 (2024-04-06 17:46:29.418093)  vcan0  202   [3]  0F 01 06
 (2024-04-06 17:46:29.418155)  vcan0  602   [8]  40 98 60 00 00 00 00 00
 (2024-04-06 17:46:29.418191)  vcan0  582   [8]  4F 98 60 00 00 00 00 00
 (2024-04-06 17:46:29.418321)  vcan0  202   [3]  0F 01 00
 (2024-04-06 17:46:29.424555)  vcan0  080   [0] 
 (2024-04-06 17:46:29.424642)  vcan0  182   [3]  27 00 00
 (2024-04-06 17:46:29.424715)  vcan0  282   [8]  00 00 00 00 00 00 00 00
 (2024-04-06 17:46:29.426676)  vcan0  202   [3]  00 01 00
 (2024-04-06 17:46:29.426762)  vcan0  402   [6]  00 01 00 00 00 00
 (2024-04-06 17:46:29.426853)  vcan0  502   [6]  00 01 00 00 00 00
 (2024-04-06 17:46:29.434544)  vcan0  080   [0] 
 (2024-04-06 17:46:29.434656)  vcan0  182   [3]  60 00 00
 (2024-04-06 17:46:29.434685)  vcan0  282   [8]  00 00 00 00 00 00 00 00
 (2024-04-06 17:46:29.436598)  vcan0  202   [3]  00 01 00
 (2024-04-06 17:46:29.436705)  vcan0  402   [6]  00 01 00 00 00 00
 (2024-04-06 17:46:29.436762)  vcan0  502   [6]  00 01 00 00 00 00
 (2024-04-06 17:46:29.444577)  vcan0  080   [0] 
 (2024-04-06 17:46:29.444634)  vcan0  182   [3]  60 00 00
 (2024-04-06 17:46:29.444654)  vcan0  282   [8]  00 00 00 00 00 00 00 00
 (2024-04-06 17:46:29.446581)  vcan0  202   [3]  00 01 00
 (2024-04-06 17:46:29.446600)  vcan0  402   [6]  00 01 00 00 00 00
 (2024-04-06 17:46:29.446608)  vcan0  502   [6]  00 01 00 00 00 00
 (2024-04-06 17:46:29.454600)  vcan0  080   [0] 
 (2024-04-06 17:46:29.454764)  vcan0  182   [3]  60 00 00
 (2024-04-06 17:46:29.454779)  vcan0  282   [8]  00 00 00 00 00 00 00 00
 (2024-04-06 17:46:29.456785)  vcan0  202   [3]  00 01 00
 (2024-04-06 17:46:29.456812)  vcan0  402   [6]  00 01 00 00 00 00
 (2024-04-06 17:46:29.456821)  vcan0  502   [6]  00 01 00 00 00 00
 (2024-04-06 17:46:29.464596)  vcan0  080   [0] 
 (2024-04-06 17:46:29.464686)  vcan0  182   [3]  60 00 00
 (2024-04-06 17:46:29.464703)  vcan0  282   [8]  00 00 00 00 00 00 00 00
 (2024-04-06 17:46:29.466737)  vcan0  202   [3]  00 01 00
 (2024-04-06 17:46:29.466760)  vcan0  402   [6]  00 01 00 00 00 00
 (2024-04-06 17:46:29.466771)  vcan0  502   [6]  00 01 00 00 00 00
 (2024-04-06 17:46:29.474687)  vcan0  080   [0] 
 (2024-04-06 17:46:29.474799)  vcan0  182   [3]  60 00 00
 (2024-04-06 17:46:29.474964)  vcan0  282   [8]  00 00 00 00 00 00 00 00
 (2024-04-06 17:46:29.477413)  vcan0  202   [3]  00 01 00
 (2024-04-06 17:46:29.477501)  vcan0  402   [6]  00 01 00 00 00 00
 (2024-04-06 17:46:29.477551)  vcan0  502   [6]  00 01 00 00 00 00
 (2024-04-06 17:46:29.484569)  vcan0  080   [0] 
 (2024-04-06 17:46:29.484692)  vcan0  182   [3]  60 00 00
 (2024-04-06 17:46:29.484869)  vcan0  282   [8]  00 00 00 00 00 00 00 00
 (2024-04-06 17:46:29.486849)  vcan0  202   [3]  00 01 00
 (2024-04-06 17:46:29.486988)  vcan0  402   [6]  00 01 00 00 00 00
 (2024-04-06 17:46:29.487078)  vcan0  502   [6]  00 01 00 00 00 00
 (2024-04-06 17:46:29.494574)  vcan0  080   [0] 
 (2024-04-06 17:46:29.494669)  vcan0  182   [3]  60 00 00
 (2024-04-06 17:46:29.494725)  vcan0  282   [8]  00 00 00 00 00 00 00 00
 (2024-04-06 17:46:29.496617)  vcan0  202   [3]  00 01 00
 (2024-04-06 17:46:29.496687)  vcan0  402   [6]  00 01 00 00 00 00
 (2024-04-06 17:46:29.496856)  vcan0  502   [6]  00 01 00 00 00 00
 (2024-04-06 17:46:29.506797)  vcan0  080   [0] 
 (2024-04-06 17:46:29.507795)  vcan0  182   [3]  60 00 00
 (2024-04-06 17:46:29.507918)  vcan0  282   [8]  00 00 00 00 00 00 00 00
 (2024-04-06 17:46:29.510964)  vcan0  202   [3]  00 01 00
 (2024-04-06 17:46:29.511133)  vcan0  402   [6]  00 01 00 00 00 00
 (2024-04-06 17:46:29.511192)  vcan0  502   [6]  00 01 00 00 00 00
 (2024-04-06 17:46:29.515335)  vcan0  080   [0] 
 (2024-04-06 17:46:29.515452)  vcan0  182   [3]  60 00 00
 (2024-04-06 17:46:29.515537)  vcan0  282   [8]  00 00 00 00 00 00 00 00
 (2024-04-06 17:46:29.517732)  vcan0  202   [3]  00 01 00
 (2024-04-06 17:46:29.517923)  vcan0  402   [6]  00 01 00 00 00 00
 (2024-04-06 17:46:29.517999)  vcan0  502   [6]  00 01 00 00 00 00
 (2024-04-06 17:46:29.524536)  vcan0  080   [0] 
 (2024-04-06 17:46:29.524622)  vcan0  182   [3]  60 00 00
 (2024-04-06 17:46:29.524689)  vcan0  282   [8]  00 00 00 00 00 00 00 00
 (2024-04-06 17:46:29.526703)  vcan0  202   [3]  00 01 00
 (2024-04-06 17:46:29.526721)  vcan0  402   [6]  00 01 00 00 00 00
 (2024-04-06 17:46:29.526732)  vcan0  502   [6]  00 01 00 00 00 00
 (2024-04-06 17:46:29.534531)  vcan0  080   [0] 
 (2024-04-06 17:46:29.534599)  vcan0  182   [3]  60 00 00
 (2024-04-06 17:46:29.534621)  vcan0  282   [8]  00 00 00 00 00 00 00 00
 (2024-04-06 17:46:29.536557)  vcan0  202   [3]  00 01 00
 (2024-04-06 17:46:29.536625)  vcan0  402   [6]  00 01 00 00 00 00
 (2024-04-06 17:46:29.536661)  vcan0  502   [6]  00 01 00 00 00 00
 (2024-04-06 17:46:29.544552)  vcan0  080   [0] 
 (2024-04-06 17:46:29.544605)  vcan0  182   [3]  60 00 00
 (2024-04-06 17:46:29.544627)  vcan0  282   [8]  00 00 00 00 00 00 00 00
 (2024-04-06 17:46:29.546507)  vcan0  202   [3]  00 01 00
 (2024-04-06 17:46:29.546540)  vcan0  402   [6]  00 01 00 00 00 00
 (2024-04-06 17:46:29.546553)  vcan0  502   [6]  00 01 00 00 00 00
 (2024-04-06 17:46:29.554584)  vcan0  080   [0] 
 (2024-04-06 17:46:29.554638)  vcan0  182   [3]  60 00 00
 (2024-04-06 17:46:29.554724)  vcan0  282   [8]  00 00 00 00 00 00 00 00
 (2024-04-06 17:46:29.556681)  vcan0  202   [3]  00 01 00
 (2024-04-06 17:46:29.556704)  vcan0  402   [6]  00 01 00 00 00 00
 (2024-04-06 17:46:29.556716)  vcan0  502   [6]  00 01 00 00 00 00
 (2024-04-06 17:46:29.564514)  vcan0  080   [0] 
 (2024-04-06 17:46:29.564552)  vcan0  182   [3]  60 00 00
 (2024-04-06 17:46:29.564573)  vcan0  282   [8]  00 00 00 00 00 00 00 00
 (2024-04-06 17:46:29.566433)  vcan0  202   [3]  00 01 00
 (2024-04-06 17:46:29.566449)  vcan0  402   [6]  00 01 00 00 00 00
 (2024-04-06 17:46:29.566461)  vcan0  502   [6]  00 01 00 00 00 00
 (2024-04-06 17:46:29.574513)  vcan0  080   [0] 
 (2024-04-06 17:46:29.574551)  vcan0  182   [3]  60 00 00
 (2024-04-06 17:46:29.574573)  vcan0  282   [8]  00 00 00 00 00 00 00 00
 (2024-04-06 17:46:29.576678)  vcan0  202   [3]  00 01 00
 (2024-04-06 17:46:29.576748)  vcan0  402   [6]  00 01 00 00 00 00
 (2024-04-06 17:46:29.576764)  vcan0  502   [6]  00 01 00 00 00 00
 (2024-04-06 17:46:29.584508)  vcan0  080   [0] 
 (2024-04-06 17:46:29.584546)  vcan0  182   [3]  60 00 00
 (2024-04-06 17:46:29.584573)  vcan0  282   [8]  00 00 00 00 00 00 00 00
 (2024-04-06 17:46:29.586440)  vcan0  202   [3]  00 01 00
 (2024-04-06 17:46:29.586460)  vcan0  402   [6]  00 01 00 00 00 00
 (2024-04-06 17:46:29.586472)  vcan0  502   [6]  00 01 00 00 00 00
 (2024-04-06 17:46:29.594577)  vcan0  080   [0] 
 (2024-04-06 17:46:29.594650)  vcan0  182   [3]  60 00 00
 (2024-04-06 17:46:29.594674)  vcan0  282   [8]  00 00 00 00 00 00 00 00
 (2024-04-06 17:46:29.596465)  vcan0  202   [3]  00 01 00
 (2024-04-06 17:46:29.596505)  vcan0  402   [6]  00 01 00 00 00 00
 (2024-04-06 17:46:29.596521)  vcan0  502   [6]  00 01 00 00 00 00
 (2024-04-06 17:46:29.604611)  vcan0  080   [0] 
 (2024-04-06 17:46:29.604687)  vcan0  182   [3]  60 00 00
 (2024-04-06 17:46:29.604710)  vcan0  282   [8]  00 00 00 00 00 00 00 00
 (2024-04-06 17:46:29.606518)  vcan0  202   [3]  00 01 00
 (2024-04-06 17:46:29.606539)  vcan0  402   [6]  00 01 00 00 00 00
 (2024-04-06 17:46:29.606552)  vcan0  502   [6]  00 01 00 00 00 00
 (2024-04-06 17:46:29.615649)  vcan0  080   [0] 
 (2024-04-06 17:46:29.615735)  vcan0  182   [3]  60 00 00
 (2024-04-06 17:46:29.615758)  vcan0  282   [8]  00 00 00 00 00 00 00 00
 (2024-04-06 17:46:29.616486)  vcan0  202   [3]  00 01 00
 (2024-04-06 17:46:29.616503)  vcan0  402   [6]  00 01 00 00 00 00
 (2024-04-06 17:46:29.616512)  vcan0  502   [6]  00 01 00 00 00 00
 (2024-04-06 17:46:29.625904)  vcan0  080   [0] 
 (2024-04-06 17:46:29.626024)  vcan0  182   [3]  60 00 00
 (2024-04-06 17:46:29.626054)  vcan0  282   [8]  00 00 00 00 00 00 00 00
 (2024-04-06 17:46:29.626495)  vcan0  202   [3]  00 01 00
 (2024-04-06 17:46:29.626516)  vcan0  402   [6]  00 01 00 00 00 00
 (2024-04-06 17:46:29.626531)  vcan0  502   [6]  00 01 00 00 00 00
 (2024-04-06 17:46:29.634525)  vcan0  080   [0] 
 (2024-04-06 17:46:29.634605)  vcan0  182   [3]  60 00 00
 (2024-04-06 17:46:29.634623)  vcan0  282   [8]  00 00 00 00 00 00 00 00
 (2024-04-06 17:46:29.637552)  vcan0  202   [3]  00 01 00
 (2024-04-06 17:46:29.637591)  vcan0  402   [6]  00 01 00 00 00 00
 (2024-04-06 17:46:29.637606)  vcan0  502   [6]  00 01 00 00 00 00
 (2024-04-06 17:46:29.644614)  vcan0  080   [0] 
 (2024-04-06 17:46:29.644744)  vcan0  182   [3]  60 00 00
 (2024-04-06 17:46:29.644799)  vcan0  282   [8]  00 00 00 00 00 00 00 00
 (2024-04-06 17:46:29.646680)  vcan0  202   [3]  00 01 00
 (2024-04-06 17:46:29.646705)  vcan0  402   [6]  00 01 00 00 00 00
 (2024-04-06 17:46:29.646713)  vcan0  502   [6]  00 01 00 00 00 00
 (2024-04-06 17:46:29.654568)  vcan0  080   [0] 
 (2024-04-06 17:46:29.654642)  vcan0  182   [3]  60 00 00
 (2024-04-06 17:46:29.654658)  vcan0  282   [8]  00 00 00 00 00 00 00 00
 (2024-04-06 17:46:29.656557)  vcan0  202   [3]  00 01 00
 (2024-04-06 17:46:29.656576)  vcan0  402   [6]  00 01 00 00 00 00
 (2024-04-06 17:46:29.656599)  vcan0  502   [6]  00 01 00 00 00 00
 (2024-04-06 17:46:29.664568)  vcan0  080   [0] 
 (2024-04-06 17:46:29.664628)  vcan0  182   [3]  60 00 00
 (2024-04-06 17:46:29.664650)  vcan0  282   [8]  00 00 00 00 00 00 00 00
 (2024-04-06 17:46:29.666522)  vcan0  202   [3]  00 01 00
 (2024-04-06 17:46:29.666539)  vcan0  402   [6]  00 01 00 00 00 00
 (2024-04-06 17:46:29.666548)  vcan0  502   [6]  00 01 00 00 00 00
 (2024-04-06 17:46:29.674574)  vcan0  080   [0] 
 (2024-04-06 17:46:29.674637)  vcan0  182   [3]  60 00 00
 (2024-04-06 17:46:29.674661)  vcan0  282   [8]  00 00 00 00 00 00 00 00
 (2024-04-06 17:46:29.676615)  vcan0  202   [3]  00 01 00
 (2024-04-06 17:46:29.676647)  vcan0  402   [6]  00 01 00 00 00 00
 (2024-04-06 17:46:29.676661)  vcan0  502   [6]  00 01 00 00 00 00
 (2024-04-06 17:46:29.684618)  vcan0  080   [0] 
 (2024-04-06 17:46:29.684675)  vcan0  182   [3]  60 00 00
 (2024-04-06 17:46:29.684696)  vcan0  282   [8]  00 00 00 00 00 00 00 00
 (2024-04-06 17:46:29.687261)  vcan0  202   [3]  00 01 00
 (2024-04-06 17:46:29.687292)  vcan0  402   [6]  00 01 00 00 00 00
 (2024-04-06 17:46:29.687304)  vcan0  502   [6]  00 01 00 00 00 00
 (2024-04-06 17:46:29.694596)  vcan0  080   [0] 
 (2024-04-06 17:46:29.694997)  vcan0  182   [3]  60 00 00
 (2024-04-06 17:46:29.695126)  vcan0  282   [8]  00 00 00 00 00 00 00 00
 (2024-04-06 17:46:29.696599)  vcan0  202   [3]  00 01 00
 (2024-04-06 17:46:29.696620)  vcan0  402   [6]  00 01 00 00 00 00
 (2024-04-06 17:46:29.696632)  vcan0  502   [6]  00 01 00 00 00 00
 (2024-04-06 17:46:29.704531)  vcan0  080   [0] 
 (2024-04-06 17:46:29.704622)  vcan0  182   [3]  60 00 00
 (2024-04-06 17:46:29.704639)  vcan0  282   [8]  00 00 00 00 00 00 00 00
 (2024-04-06 17:46:29.706511)  vcan0  202   [3]  00 01 00
 (2024-04-06 17:46:29.706529)  vcan0  402   [6]  00 01 00 00 00 00
 (2024-04-06 17:46:29.706540)  vcan0  502   [6]  00 01 00 00 00 00
 (2024-04-06 17:46:29.714522)  vcan0  080   [0] 
 (2024-04-06 17:46:29.714596)  vcan0  182   [3]  60 00 00
 (2024-04-06 17:46:29.714613)  vcan0  282   [8]  00 00 00 00 00 00 00 00
 (2024-04-06 17:46:29.716489)  vcan0  202   [3]  00 01 00
 (2024-04-06 17:46:29.716507)  vcan0  402   [6]  00 01 00 00 00 00
 (2024-04-06 17:46:29.716519)  vcan0  502   [6]  00 01 00 00 00 00
 (2024-04-06 17:46:29.724572)  vcan0  080   [0] 
 (2024-04-06 17:46:29.724649)  vcan0  182   [3]  60 00 00
 (2024-04-06 17:46:29.724664)  vcan0  282   [8]  00 00 00 00 00 00 00 00
 (2024-04-06 17:46:29.726742)  vcan0  202   [3]  00 01 00
 (2024-04-06 17:46:29.726771)  vcan0  402   [6]  00 01 00 00 00 00
 (2024-04-06 17:46:29.726786)  vcan0  502   [6]  00 01 00 00 00 00
 (2024-04-06 17:46:29.734540)  vcan0  080   [0] 
 (2024-04-06 17:46:29.734594)  vcan0  182   [3]  60 00 00
 (2024-04-06 17:46:29.734614)  vcan0  282   [8]  00 00 00 00 00 00 00 00
 (2024-04-06 17:46:29.736551)  vcan0  202   [3]  00 01 00
 (2024-04-06 17:46:29.736576)  vcan0  402   [6]  00 01 00 00 00 00
 (2024-04-06 17:46:29.736589)  vcan0  502   [6]  00 01 00 00 00 00
 (2024-04-06 17:46:29.744565)  vcan0  080   [0] 
 (2024-04-06 17:46:29.744644)  vcan0  182   [3]  60 00 00
 (2024-04-06 17:46:29.744663)  vcan0  282   [8]  00 00 00 00 00 00 00 00
 (2024-04-06 17:46:29.746461)  vcan0  202   [3]  00 01 00
 (2024-04-06 17:46:29.746485)  vcan0  402   [6]  00 01 00 00 00 00
 (2024-04-06 17:46:29.746501)  vcan0  502   [6]  00 01 00 00 00 00
 (2024-04-06 17:46:29.754521)  vcan0  080   [0] 
 (2024-04-06 17:46:29.754605)  vcan0  182   [3]  60 00 00
 (2024-04-06 17:46:29.754631)  vcan0  282   [8]  00 00 00 00 00 00 00 00
 (2024-04-06 17:46:29.756487)  vcan0  202   [3]  00 01 00
 (2024-04-06 17:46:29.756509)  vcan0  402   [6]  00 01 00 00 00 00
 (2024-04-06 17:46:29.756523)  vcan0  502   [6]  00 01 00 00 00 00
 (2024-04-06 17:46:29.764538)  vcan0  080   [0] 
 (2024-04-06 17:46:29.764597)  vcan0  182   [3]  60 00 00
 (2024-04-06 17:46:29.764622)  vcan0  282   [8]  00 00 00 00 00 00 00 00
 (2024-04-06 17:46:29.766969)  vcan0  202   [3]  00 01 00
 (2024-04-06 17:46:29.767005)  vcan0  402   [6]  00 01 00 00 00 00
 (2024-04-06 17:46:29.767021)  vcan0  502   [6]  00 01 00 00 00 00
 (2024-04-06 17:46:29.774548)  vcan0  080   [0] 
 (2024-04-06 17:46:29.774604)  vcan0  182   [3]  60 00 00
 (2024-04-06 17:46:29.774626)  vcan0  282   [8]  00 00 00 00 00 00 00 00
 (2024-04-06 17:46:29.776780)  vcan0  202   [3]  00 01 00
 (2024-04-06 17:46:29.776826)  vcan0  402   [6]  00 01 00 00 00 00
 (2024-04-06 17:46:29.776842)  vcan0  502   [6]  00 01 00 00 00 00
 (2024-04-06 17:46:29.784545)  vcan0  080   [0] 
 (2024-04-06 17:46:29.784623)  vcan0  182   [3]  60 00 00
 (2024-04-06 17:46:29.784651)  vcan0  282   [8]  00 00 00 00 00 00 00 00
 (2024-04-06 17:46:29.786785)  vcan0  202   [3]  00 01 00
 (2024-04-06 17:46:29.786822)  vcan0  402   [6]  00 01 00 00 00 00
 (2024-04-06 17:46:29.786835)  vcan0  502   [6]  00 01 00 00 00 00
